Time,V(y),V(yk),V(rk)
0,0,0,0
0.03,0.0891082779992703,0,1
0.06,0.180664668913282,0,1
0.09,0.269515306573901,0,1
0.12,0.355740016886758,0,1
0.15,0.439416401931398,0,1
0.18,0.520619775868696,0,1
0.21,0.599423227218631,0,1
0.24,0.675897684418214,0,1
0.27,0.750102226001281,0,1
0.3,0.822122979107525,0,1
0.33,0.892015644237305,0,1
0.36,0.959842687165108,0,1
0.39,1.02566513862035,0,1
0.42,1.08954224251375,0,1
0.45,1.15153149252941,0,1
0.48,1.2116886831848,0,1
0.51,1.23944692983045,1.25397190292046,1
0.54,1.18831330487104,1.25397190292046,1
0.57,1.13869071670185,1.25397190292046,1
0.6,1.09053468994013,1.25397190292046,1
0.63,1.04380188865049,1.25397190292046,1
0.66,0.998450250468874,1.25397190292046,1
0.69,0.954438955865899,1.25397190292046,1
0.72,0.91172839169951,1.25397190292046,1
0.75,0.870280115572521,1.25397190292046,1
0.78,0.830058469881094,1.25397190292046,1
0.81,0.791023928905821,1.25397190292046,1
0.84,0.753143010054727,1.25397190292046,1
0.87,0.716381640694601,1.25397190292046,1
0.9,0.680706734042198,1.25397190292046,1
0.93,0.646086180306563,1.25397190292046,1
0.96,0.612488818648769,1.25397190292046,1
0.99,0.579884409170456,1.25397190292046,1
1.02,0.586403802553427,0.567406926734142,1
1.05,0.616845735453292,0.567406926734142,1
1.08,0.646388012705453,0.567406926734142,1
1.11,0.675057185269401,0.567406926734142,1
1.14,0.702879055731928,0.567406926734142,1
1.17,0.729878665592502,0.567406926734142,1
1.2,0.756080316323859,0.567406926734142,1
1.23,0.781507591184138,0.567406926734142,1
1.26,0.806182479463277,0.567406926734142,1
1.29,0.830128890455464,0.567406926734142,1
1.32,0.853367694056433,0.567406926734142,1
1.35,0.875919691934475,0.567406926734142,1
1.38,0.897805177689532,0.567406926734142,1
1.41,0.919043849545049,0.567406926734142,1
1.44,0.939654823734542,0.567406926734142,1
1.47,0.95965665152883,0.567406926734142,1
1.5,0.97906704918118,0.567406926734142,1
1.53,0.965073144642414,0.98016469210622,1
1.56,0.949520660929991,0.98016469210622,1
1.59,0.934427815575106,0.98016469210622,1
1.62,0.919781030958996,0.98016469210622,1
1.65,0.905567124271066,0.98016469210622,1
1.68,0.891773302045484,0.98016469210622,1
1.71,0.87838714890955,0.98016469210622,1
1.74,0.865396616419861,0.98016469210622,1
1.77,0.852790513817651,0.98016469210622,1
1.8,0.84055649784612,0.98016469210622,1
1.83,0.828684031042973,0.98016469210622,1
1.86,0.817162447839888,0.98016469210622,1
1.89,0.805981378874006,0.98016469210622,1
1.92,0.795130760461457,0.98016469210622,1
1.95,0.784600826313023,0.98016469210622,1
1.98,0.77438209877566,0.98016469210622,1
2.01,0.77011206900522,0.767171690678552,1
2.04,0.780570167810544,0.767171690678552,1
2.07,0.790719221988907,0.767171690678552,1
2.1,0.800568327862892,0.767171690678552,1
2.13,0.810126348709735,0.767171690678552,1
2.16,0.819401887329636,0.767171690678552,1
2.19,0.828403292332183,0.767171690678552,1
2.22,0.837138665590735,0.767171690678552,1
2.25,0.845615869532181,0.767171690678552,1
2.28,0.853842197023879,0.767171690678552,1
2.31,0.861825732059071,0.767171690678552,1
2.34,0.869573322661061,0.767171690678552,1
2.37,0.877091937531264,0.767171690678552,1
2.4,0.884388343740245,0.767171690678552,1
2.43,0.89146910853933,0.767171690678552,1
2.46,0.898340605095545,0.767171690678552,1
2.49,0.905009018220648,0.767171690678552,1
2.52,0.90472134123466,0.90756097389101,1
2.55,0.900170913700814,0.90756097389101,1
2.58,0.895754965729872,0.90756097389101,1
2.61,0.891469528512837,0.90756097389101,1
2.64,0.887310745106663,0.90756097389101,1
2.67,0.883274872334825,0.90756097389101,1
2.7,0.879358277639201,0.90756097389101,1
2.73,0.875557435819614,0.90756097389101,1
2.76,0.871869059940548,0.90756097389101,1
2.79,0.868289576066312,0.90756097389101,1
2.82,0.864815864587237,0.90756097389101,1
2.85,0.861444816092221,0.90756097389101,1
2.88,0.858173397115674,0.90756097389101,1
2.91,0.854998663188246,0.90756097389101,1
2.94,0.851917756835821,0.90756097389101,1
2.97,0.848927905034302,0.90756097389101,1
3,0.84602645957712,0.90756097389101,1
3.03,0.849514116017664,0.845862385087998,1
3.06,0.853277380582943,0.845862385087998,1
3.09,0.856929425565825,0.845862385087998,1
3.12,0.860473536368981,0.845862385087998,1
3.15,0.863912902862588,0.845862385087998,1
3.18,0.867250620706319,0.845862385087998,1
3.21,0.870489694071919,0.845862385087998,1
3.24,0.873633038344546,0.845862385087998,1
3.27,0.876683361373741,0.845862385087998,1
3.3,0.879643649881226,0.845862385087998,1
3.33,0.882516453637132,0.845862385087998,1
3.36,0.88530435340966,0.845862385087998,1
3.39,0.888009858293594,0.845862385087998,1
3.42,0.890635403417985,0.845862385087998,1
3.45,0.893183351950724,0.845862385087998,1
3.48,0.895655997217852,0.845862385087998,1
3.51,0.897106656581152,0.897400713611375,1
3.54,0.896060778420309,0.897400713611375,1
3.57,0.895045806739899,0.897400713611375,1
3.6,0.894060831848272,0.897400713611375,1
3.63,0.893104967359834,0.897400713611375,1
3.66,0.8921773529384,0.897400713611375,1
3.69,0.891277153668502,0.897400713611375,1
3.72,0.890403559309911,0.897400713611375,1
3.75,0.889555783568601,0.897400713611375,1
3.78,0.888733097110226,0.897400713611375,1
3.81,0.887934691482678,0.897400713611375,1
3.84,0.887159881838918,0.897400713611375,1
3.87,0.886407971263306,0.897400713611375,1
3.9,0.885678283004602,0.897400713611375,1
3.93,0.884970160294797,0.897400713611375,1
3.96,0.884282965775579,0.897400713611375,1
3.99,0.883616080925394,0.897400713611375,1
4.02,0.884371240883019,0.88336086869679,1
4.05,0.88599053695513,0.88336086869679,1
4.08,0.887561983327937,0.88336086869679,1
4.11,0.889086986756081,0.88336086869679,1
4.14,0.890566919530961,0.88336086869679,1
4.17,0.892003113679242,0.88336086869679,1
4.2,0.893396861872287,0.88336086869679,1
4.23,0.89474941857774,0.88336086869679,1
4.26,0.896061906110085,0.88336086869679,1
4.29,0.897335692409683,0.88336086869679,1
4.32,0.898571838805716,0.88336086869679,1
4.35,0.89977145180555,0.88336086869679,1
4.38,0.900935610890765,0.88336086869679,1
4.41,0.902065363872956,0.88336086869679,1
4.44,0.903161727605812,0.88336086869679,1
4.47,0.904225688890849,0.88336086869679,1
4.5,0.905258190112321,0.88336086869679,1
4.53,0.905345714262125,0.905316577255181,1
4.56,0.905375743767895,0.905316577255181,1
4.59,0.905404885817594,0.905316577255181,1
4.62,0.905433166591551,0.905316577255181,1
4.65,0.905460611542338,0.905316577255181,1
4.68,0.905487245372185,0.905316577255181,1
4.71,0.905513092053335,0.905316577255181,1
4.74,0.905538174849553,0.905316577255181,1
4.77,0.905562514490166,0.905316577255181,1
4.8,0.905586136590877,0.905316577255181,1
4.83,0.905609060592871,0.905316577255181,1
4.86,0.905631307089805,0.905316577255181,1
4.89,0.905652896103405,0.905316577255181,1
4.92,0.905673847065174,0.905316577255181,1
4.95,0.905694178832396,0.905316577255181,1
4.98,0.905713909705038,0.905316577255181,1
5.01,0.905970868829309,0.905727831951553,1
5.04,0.9068354978362,0.905727831951553,1
5.07,0.90767458503866,0.905727831951553,1
5.1,0.908488873951871,0.905727831951553,1
5.13,0.909279097008791,0.905727831951553,1
5.16,0.910045965443792,0.905727831951553,1
5.19,0.910790169489531,0.905727831951553,1
5.22,0.911512378979964,0.905727831951553,1
5.25,0.912213243952489,0.905727831951553,1
5.28,0.912893342811862,0.905727831951553,1
5.31,0.913553393726155,0.905727831951553,1
5.34,0.914193937575198,0.905727831951553,1
5.37,0.914815550506991,0.905727831951553,1
5.4,0.915418791999394,0.905727831951553,1
5.43,0.916004205009911,0.905727831951553,1
5.46,0.916572316449829,0.905727831951553,1
5.49,0.917123637657879,0.905727831951553,1
5.52,0.917532817202019,0.917334624478379,1
5.55,0.917850455299426,0.917334624478379,1
5.58,0.91815870728906,0.917334624478379,1
5.61,0.91845784911729,0.917334624478379,1
5.64,0.918748149970235,0.917334624478379,1
5.67,0.919029871135761,0.917334624478379,1
5.7,0.919303266181872,0.917334624478379,1
5.73,0.919568581182602,0.917334624478379,1
5.76,0.91982603628907,0.917334624478379,1
5.79,0.920075899833901,0.917334624478379,1
5.82,0.920318380005449,0.917334624478379,1
5.85,0.920553693854138,0.917334624478379,1
5.88,0.920782053129058,0.917334624478379,1
5.91,0.921003663366978,0.917334624478379,1
5.94,0.921218724032021,0.917334624478379,1
5.97,0.921427428693332,0.917334624478379,1
6,0.92162996220725,0.917334624478379,1
6.03,0.922178283774071,0.921641415320298,1
6.06,0.922731597103776,0.921641415320298,1
6.09,0.923268558473604,0.921641415320298,1
6.12,0.923789650273257,0.921641415320298,1
6.15,0.924295341483093,0.921641415320298,1
6.18,0.92478608725787,0.921641415320298,1
6.21,0.925262329301921,0.921641415320298,1
6.24,0.925724496265305,0.921641415320298,1
6.27,0.926172970099486,0.921641415320298,1
6.3,0.926608222790608,0.921641415320298,1
6.33,0.927030612555208,0.921641415320298,1
6.36,0.927440518844916,0.921641415320298,1
6.39,0.927838310573188,0.921641415320298,1
6.42,0.928224345778257,0.921641415320298,1
6.45,0.928598971917874,0.921641415320298,1
6.48,0.928962526180909,0.921641415320298,1
6.51,0.929322071488253,0.929219052699726,1
6.54,0.929688571558688,0.929219052699726,1
6.57,0.93004424493577,0.929219052699726,1
6.6,0.930389406781681,0.929219052699726,1
6.63,0.930724367561058,0.929219052699726,1
6.66,0.931049428752854,0.929219052699726,1
6.69,0.931364882933789,0.929219052699726,1
6.72,0.931671014033952,0.929219052699726,1
6.75,0.931968097592043,0.929219052699726,1
6.78,0.932256378783024,0.929219052699726,1
6.81,0.932536162024913,0.929219052699726,1
6.84,0.932807676586557,0.929219052699726,1
6.87,0.933071166686322,0.929219052699726,1
6.9,0.933326869476412,0.929219052699726,1
6.93,0.933575015106361,0.929219052699726,1
6.96,0.933815826924014,0.929219052699726,1
6.99,0.934049521676298,0.929219052699726,1
7.02,0.934400819992191,0.934138955044781,1
7.05,0.934820503833986,0.934138955044781,1
7.08,0.935227786147748,0.934138955044781,1
7.11,0.935623031531528,0.934138955044781,1
7.14,0.936006595651309,0.934138955044781,1
7.17,0.936378823737388,0.934138955044781,1
7.2,0.936740050820085,0.934138955044781,1
7.23,0.937090602028211,0.934138955044781,1
7.26,0.937430768239549,0.934138955044781,1
7.29,0.937760903992392,0.934138955044781,1
7.32,0.938081284358554,0.934138955044781,1
7.35,0.938392196118986,0.934138955044781,1
7.38,0.938693919050178,0.934138955044781,1
7.41,0.9389867247205,0.934138955044781,1
7.44,0.939270876674757,0.934138955044781,1
7.47,0.939546630668927,0.934138955044781,1
7.5,0.939814230947066,0.934138955044781,1
7.53,0.940153470302887,0.939829363535138,1
7.56,0.940487504820249,0.939829363535138,1
7.59,0.940811667681296,0.939829363535138,1
7.62,0.941126250104044,0.939829363535138,1
7.65,0.941431535211311,0.939829363535138,1
7.68,0.941727797779415,0.939829363535138,1
7.71,0.942015304464671,0.939829363535138,1
7.74,0.942294314042548,0.939829363535138,1
7.77,0.94256505709663,0.939829363535138,1
7.8,0.942827818564327,0.939829363535138,1
7.83,0.94308281470048,0.939829363535138,1
7.86,0.94333027457953,0.939829363535138,1
7.89,0.943570420914039,0.939829363535138,1
7.92,0.943803469851209,0.939829363535138,1
7.95,0.94402963115082,0.939829363535138,1
7.98,0.944249108373341,0.939829363535138,1
8.01,0.944499971715741,0.944403973089774,1
8.04,0.944841411831256,0.944403973089774,1
8.07,0.945172762136461,0.944403973089774,1
8.1,0.94549431961167,0.944403973089774,1
8.13,0.945806373628634,0.944403973089774,1
8.16,0.946109205054955,0.944403973089774,1
8.19,0.946403086459314,0.944403973089774,1
8.22,0.946688282354858,0.944403973089774,1
8.25,0.946965049437181,0.944403973089774,1
8.28,0.947233625806683,0.944403973089774,1
8.31,0.947494275392745,0.944403973089774,1
8.34,0.947747221772327,0.944403973089774,1
8.37,0.947992692462322,0.944403973089774,1
8.4,0.94823090839671,0.944403973089774,1
8.43,0.948462083985688,0.944403973089774,1
8.46,0.948686427302918,0.944403973089774,1
8.49,0.94890414027256,0.944403973089774,1
8.52,0.949171741745536,0.948987457523153,1
8.55,0.949467051773656,0.948987457523153,1
8.58,0.949753634454025,0.948987457523153,1
8.61,0.950031747351254,0.948987457523153,1
8.64,0.950301640770166,0.948987457523153,1
8.67,0.950563557632454,0.948987457523153,1
8.7,0.950817733680988,0.948987457523153,1
8.73,0.951064397691408,0.948987457523153,1
8.76,0.951303762976639,0.948987457523153,1
8.79,0.951536061475119,0.948987457523153,1
8.82,0.951761495640797,0.948987457523153,1
8.85,0.95198026726576,0.948987457523153,1
8.88,0.952192573213448,0.948987457523153,1
8.91,0.952398604571689,0.948987457523153,1
8.94,0.952598546782568,0.948987457523153,1
8.97,0.952792579807601,0.948987457523153,1
9,0.952980875507987,0.948987457523153,1
9.03,0.953261086460663,0.95299152348373,1
9.06,0.953538882612334,0.95299152348373,1
9.09,0.953808468772005,0.95299152348373,1
9.12,0.954070087461081,0.95299152348373,1
9.15,0.954323974148966,0.95299152348373,1
9.18,0.954570357350641,0.95299152348373,1
9.21,0.954809458827654,0.95299152348373,1
9.24,0.955041493787505,0.95299152348373,1
9.27,0.955266662117864,0.95299152348373,1
9.3,0.95548518429215,0.95299152348373,1
9.33,0.955697248528947,0.95299152348373,1
9.36,0.955903045335051,0.95299152348373,1
9.39,0.956102759926478,0.95299152348373,1
9.42,0.956296572059252,0.95299152348373,1
9.45,0.956484656177381,0.95299152348373,1
9.48,0.956667181569297,0.95299152348373,1
9.51,0.956867845590906,0.956795972806659,1
9.54,0.95712347687218,0.956795972806659,1
9.57,0.957371554058257,0.956795972806659,1
9.6,0.957612299494004,0.956795972806659,1
9.63,0.957845929827874,0.956795972806659,1
9.66,0.958072655341378,0.956795972806659,1
9.69,0.958292680102752,0.956795972806659,1
9.72,0.958506202149164,0.956795972806659,1
9.75,0.9587134136649,0.956795972806659,1
9.78,0.95891449291229,0.956795972806659,1
9.81,0.959109637491445,0.956795972806659,1
9.84,0.959299014791204,0.956795972806659,1
9.87,0.959482795150185,0.956795972806659,1
9.9,0.959661143978458,0.956795972806659,1
9.93,0.959834221801844,0.956795972806659,1
9.96,0.960002184402086,0.956795972806659,1
9.99,0.960165182956887,0.956795972806659,1
10.02,0.960374651546704,0.960227561378618,1
10.05,0.960610359200409,0.960227561378618,1
10.08,0.960839100945529,0.960227561378618,1
10.11,0.961061082362444,0.960227561378618,1
10.14,0.961276503236998,0.960227561378618,1
10.17,0.961485557462043,0.960227561378618,1
10.2,0.961688433200499,0.960227561378618,1
10.23,0.961885313054258,0.960227561378618,1
10.26,0.962076367283333,0.960227561378618,1
10.29,0.962261781014067,0.960227561378618,1
10.32,0.962441715839156,0.960227561378618,1
10.35,0.962616332823029,0.960227561378618,1
10.38,0.962785789096208,0.960227561378618,1
10.41,0.962950237179295,0.960227561378618,1
10.44,0.963109825086632,0.960227561378618,1
10.47,0.963264696458129,0.960227561378618,1
10.5,0.96341498846827,0.960227561378618,1
10.53,0.963630254784913,0.96342348736482,1
10.56,0.96384333743538,0.96342348736482,1
10.59,0.964050122637719,0.96342348736482,1
10.62,0.964250796417196,0.96342348736482,1
10.65,0.964445539389867,0.96342348736482,1
10.68,0.964634526837419,0.96342348736482,1
10.71,0.964817928861336,0.96342348736482,1
10.74,0.964995910535844,0.96342348736482,1
10.77,0.965168625184142,0.96342348736482,1
10.8,0.965336241919662,0.96342348736482,1
10.83,0.965498905114866,0.96342348736482,1
10.86,0.965656760897383,0.96342348736482,1
10.89,0.965809951336566,0.96342348736482,1
10.92,0.965958614313704,0.96342348736482,1
10.95,0.966102883635508,0.96342348736482,1
10.98,0.966242889154135,0.96342348736482,1
11.01,0.966398170453565,0.966341678061214,1
11.04,0.966599098006186,0.966341678061214,1
11.07,0.966794087999629,0.966341678061214,1
11.1,0.966983315198147,0.966341678061214,1
11.13,0.967166949888581,0.966341678061214,1
11.16,0.967345157353323,0.966341678061214,1
11.19,0.967518097991097,0.966341678061214,1
11.22,0.967685927460174,0.966341678061214,1
11.25,0.967848796818432,0.966341678061214,1
11.28,0.968006846181011,0.966341678061214,1
11.31,0.968160230862656,0.966341678061214,1
11.34,0.968309082431889,0.966341678061214,1
11.37,0.968453534775768,0.966341678061214,1
11.4,0.9685937179075,0.966341678061214,1
11.43,0.968729758001232,0.966341678061214,1
11.46,0.968861777502249,0.966341678061214,1
11.49,0.968989895237034,0.966341678061214,1
11.52,0.969152805678189,0.969038925009729,1
11.55,0.969335296088768,0.969038925009729,1
11.58,0.969512393329042,0.969038925009729,1
11.61,0.969684256564183,0.969038925009729,1
11.64,0.969851040473092,0.969038925009729,1
11.67,0.970012895172171,0.969038925009729,1
11.7,0.970169966341584,0.969038925009729,1
11.73,0.97032239535601,0.969038925009729,1
11.76,0.970470314034757,0.969038925009729,1
11.79,0.970613865706992,0.969038925009729,1
11.82,0.970753175481587,0.969038925009729,1
11.85,0.970888368058407,0.969038925009729,1
11.88,0.971019565091601,0.969038925009729,1
11.91,0.971146884666209,0.969038925009729,1
11.94,0.971270441378411,0.969038925009729,1
11.97,0.971390346437611,0.969038925009729,1
12,0.971506706047519,0.969038925009729,1
12.03,0.971674865800374,0.971513286093167,1
12.06,0.971841380584271,0.971513286093167,1
12.09,0.972002974187526,0.971513286093167,1
12.12,0.972159791980764,0.971513286093167,1
12.15,0.972311975107539,0.971513286093167,1
12.18,0.972459660542834,0.971513286093167,1
12.21,0.97260298121353,0.971513286093167,1
12.24,0.972742066117924,0.971513286093167,1
12.27,0.972877035071396,0.971513286093167,1
12.3,0.973008020228711,0.971513286093167,1
12.33,0.973135134410639,0.971513286093167,1
12.36,0.973258491809539,0.971513286093167,1
12.39,0.973378203446409,0.971513286093167,1
12.42,0.973494377069446,0.971513286093167,1
12.45,0.973607117242757,0.971513286093167,1
12.48,0.973716525440127,0.971513286093167,1
12.51,0.973837618246852,0.973793724655912,1
12.54,0.973993735405933,0.973793724655912,1
12.57,0.974145239186418,0.973793724655912,1
12.6,0.974292265377044,0.973793724655912,1
12.63,0.974434946287678,0.973793724655912,1
12.66,0.97457341033982,0.973793724655912,1
12.69,0.974707782160443,0.973793724655912,1
12.72,0.974838182693277,0.973793724655912,1
12.75,0.974964729307621,0.973793724655912,1
12.78,0.975087530870465,0.973793724655912,1
12.81,0.975206708058624,0.973793724655912,1
12.84,0.975322363098515,0.973793724655912,1
12.87,0.975434600018018,0.973793724655912,1
12.9,0.975543519835094,0.973793724655912,1
12.93,0.975649220584831,0.973793724655912,1
12.96,0.97575179740505,0.973793724655912,1
12.99,0.975851342621828,0.973793724655912,1
13.02,0.975978234851739,0.975889437889122,1
13.05,0.976120529363925,0.975889437889122,1
13.08,0.976258618622065,0.975889437889122,1
13.11,0.976392626733119,0.975889437889122,1
13.14,0.976522674305938,0.975889437889122,1
13.17,0.976648878391828,0.975889437889122,1
13.2,0.976771352582986,0.975889437889122,1
13.23,0.976890207114475,0.975889437889122,1
13.26,0.977005544770679,0.975889437889122,1
13.29,0.977117477310639,0.975889437889122,1
13.32,0.977226102286361,0.975889437889122,1
13.35,0.977331516930937,0.975889437889122,1
13.38,0.9774338161026,0.975889437889122,1
13.41,0.977533091876616,0.975889437889122,1
13.44,0.977629433607857,0.975889437889122,1
13.47,0.977722928010403,0.975889437889122,1
13.5,0.977813657895208,0.975889437889122,1
13.53,0.977944503437666,0.97781878859979,1
13.56,0.978074057943139,0.97781878859979,1
13.59,0.978199783592643,0.97781878859979,1
13.62,0.978321793489764,0.97781878859979,1
13.65,0.978440197449276,0.97781878859979,1
13.68,0.978555102042654,0.97781878859979,1
13.71,0.978666610691805,0.97781878859979,1
13.74,0.978774823762055,0.97781878859979,1
13.77,0.978879834474091,0.97781878859979,1
13.8,0.97898174564908,0.97781878859979,1
13.83,0.979080645065653,0.97781878859979,1
13.86,0.979176621569584,0.97781878859979,1
13.89,0.979269761539208,0.97781878859979,1
13.92,0.979360148806508,0.97781878859979,1
13.95,0.97944786472613,0.97781878859979,1
13.98,0.979532988248336,0.97781878859979,1
14.01,0.979627248834742,0.979593052021593,1
14.04,0.979748877282179,0.979593052021593,1
14.07,0.979866911518194,0.979593052021593,1
14.1,0.979981457333679,0.979593052021593,1
14.13,0.980092617809193,0.979593052021593,1
14.16,0.980200492995924,0.979593052021593,1
