Time,V(yk),V(u)
0,0,0
0.06,0,12
0.12,0,12
0.18,0,12
0.24,0,12
0.3,0,12
0.36,0,12
0.42,0,12
0.48,0,12
0.54,4.677978515625,0.278282470703125
0.6,4.677978515625,0.278282470703125
0.66,4.677978515625,0.278282470703125
0.72,4.677978515625,0.278282470703125
0.78,4.677978515625,0.278282470703125
0.84,4.677978515625,0.278282470703125
0.9,4.677978515625,0.278282470703125
0.96,4.677978515625,0.278282470703125
1.02,2.956787109375,7.45984772949219
1.08,2.956787109375,7.45984772949219
1.14,2.956787109375,7.45984772949219
1.2,2.956787109375,7.45984772949219
1.26,2.956787109375,7.45984772949219
1.32,2.956787109375,7.45984772949219
1.38,2.956787109375,7.45984772949219
1.44,2.956787109375,7.45984772949219
1.5,2.956787109375,7.45984772949219
1.56,4.7156982421875,4.09886989746094
1.62,4.7156982421875,4.09886989746094
1.68,4.7156982421875,4.09886989746094
1.74,4.7156982421875,4.09886989746094
1.8,4.7156982421875,4.09886989746094
1.86,4.7156982421875,4.09886989746094
1.92,4.7156982421875,4.09886989746094
1.98,4.7156982421875,4.09886989746094
2.04,4.4747314453125,6.55093804931641
2.1,4.4747314453125,6.55093804931641
2.16,4.4747314453125,6.55093804931641
2.22,4.4747314453125,6.55093804931641
2.28,4.4747314453125,6.55093804931641
2.34,4.4747314453125,6.55093804931641
2.4,4.4747314453125,6.55093804931641
2.46,4.4747314453125,6.55093804931641
2.52,5.2855224609375,5.72785017089844
2.58,5.2855224609375,5.72785017089844
2.64,5.2855224609375,5.72785017089844
2.7,5.2855224609375,5.72785017089844
2.76,5.2855224609375,5.72785017089844
2.82,5.2855224609375,5.72785017089844
2.88,5.2855224609375,5.72785017089844
2.94,5.2855224609375,5.72785017089844
3,5.2855224609375,5.72785017089844
3.06,5.4583740234375,6.67947623291015
3.12,5.4583740234375,6.67947623291015
3.18,5.4583740234375,6.67947623291015
3.24,5.4583740234375,6.67947623291015
3.3,5.4583740234375,6.67947623291015
3.36,5.4583740234375,6.67947623291015
3.42,5.4583740234375,6.67947623291015
3.48,5.4583740234375,6.67947623291015
3.54,5.9351806640625,6.60730966796875
3.6,5.9351806640625,6.60730966796875
3.66,5.9351806640625,6.60730966796875
3.72,5.9351806640625,6.60730966796875
3.78,5.9351806640625,6.60730966796875
3.84,5.9351806640625,6.60730966796875
3.9,5.9351806640625,6.60730966796875
3.96,5.9351806640625,6.60730966796875
4.02,6.19775390625,7.06594666748047
4.08,6.19775390625,7.06594666748047
4.14,6.19775390625,7.06594666748047
4.2,6.19775390625,7.06594666748047
4.26,6.19775390625,7.06594666748047
4.32,6.19775390625,7.06594666748047
4.38,6.19775390625,7.06594666748047
4.44,6.19775390625,7.06594666748047
4.5,6.19775390625,7.06594666748047
4.56,6.5357666015625,7.20047603759765
4.62,6.5357666015625,7.20047603759765
4.68,6.5357666015625,7.20047603759765
4.74,6.5357666015625,7.20047603759765
4.8,6.5357666015625,7.20047603759765
4.86,6.5357666015625,7.20047603759765
4.92,6.5357666015625,7.20047603759765
4.98,6.5357666015625,7.20047603759765
5.04,6.7943115234375,7.48054455566406
5.1,6.7943115234375,7.48054455566406
5.16,6.7943115234375,7.48054455566406
5.22,6.7943115234375,7.48054455566406
5.28,6.7943115234375,7.48054455566406
5.34,6.7943115234375,7.48054455566406
5.4,6.7943115234375,7.48054455566406
5.46,6.7943115234375,7.48054455566406
5.52,7.0616455078125,7.6502040649414
5.58,7.0616455078125,7.6502040649414
5.64,7.0616455078125,7.6502040649414
5.7,7.0616455078125,7.6502040649414
5.76,7.0616455078125,7.6502040649414
5.82,7.0616455078125,7.6502040649414
5.88,7.0616455078125,7.6502040649414
5.94,7.0616455078125,7.6502040649414
6,7.0616455078125,7.6502040649414
6.06,7.29052734375,7.85721123046875
6.12,7.29052734375,7.85721123046875
6.18,7.29052734375,7.85721123046875
6.24,7.29052734375,7.85721123046875
6.3,7.29052734375,7.85721123046875
6.36,7.29052734375,7.85721123046875
6.42,7.29052734375,7.85721123046875
6.48,7.29052734375,7.85721123046875
6.54,7.510986328125,8.01811738281249
6.6,7.510986328125,8.01811738281249
6.66,7.510986328125,8.01811738281249
6.72,7.510986328125,8.01811738281249
6.78,7.510986328125,8.01811738281249
6.84,7.510986328125,8.01811738281249
6.9,7.510986328125,8.01811738281249
6.96,7.510986328125,8.01811738281249
7.02,7.7083740234375,8.18229145507812
7.08,7.7083740234375,8.18229145507812
7.14,7.7083740234375,8.18229145507812
7.2,7.7083740234375,8.18229145507812
7.26,7.7083740234375,8.18229145507812
7.32,7.7083740234375,8.18229145507812
7.38,7.7083740234375,8.18229145507812
7.44,7.7083740234375,8.18229145507812
7.5,7.7083740234375,8.18229145507812
7.56,7.8929443359375,8.32440706787109
7.62,7.8929443359375,8.32440706787109
7.68,7.8929443359375,8.32440706787109
7.74,7.8929443359375,8.32440706787109
7.8,7.8929443359375,8.32440706787109
7.86,7.8929443359375,8.32440706787109
7.92,7.8929443359375,8.32440706787109
7.98,7.8929443359375,8.32440706787109
8.04,8.0606689453125,8.46138737792968
8.1,8.0606689453125,8.46138737792968
8.16,8.0606689453125,8.46138737792968
8.22,8.0606689453125,8.46138737792968
8.28,8.0606689453125,8.46138737792968
8.34,8.0606689453125,8.46138737792968
8.4,8.0606689453125,8.46138737792968
8.46,8.0606689453125,8.46138737792968
8.52,8.217041015625,8.58109439697265
8.58,8.217041015625,8.58109439697265
8.64,8.217041015625,8.58109439697265
8.7,8.217041015625,8.58109439697265
8.76,8.217041015625,8.58109439697265
8.82,8.217041015625,8.58109439697265
8.88,8.217041015625,8.58109439697265
8.94,8.217041015625,8.58109439697265
9,8.217041015625,8.58109439697265
9.06,8.359130859375,8.69648309326171
9.12,8.359130859375,8.69648309326171
9.18,8.359130859375,8.69648309326171
9.24,8.359130859375,8.69648309326171
9.3,8.359130859375,8.69648309326171
9.36,8.359130859375,8.69648309326171
9.42,8.359130859375,8.69648309326171
9.48,8.359130859375,8.69648309326171
9.54,8.490966796875,8.7992669555664
9.6,8.490966796875,8.7992669555664
9.66,8.490966796875,8.7992669555664
9.72,8.490966796875,8.7992669555664
9.78,8.490966796875,8.7992669555664
9.84,8.490966796875,8.7992669555664
9.9,8.490966796875,8.7992669555664
9.96,8.490966796875,8.7992669555664
10.02,8.6114501953125,8.89621524658203
10.08,8.6114501953125,8.89621524658203
10.14,8.6114501953125,8.89621524658203
10.2,8.6114501953125,8.89621524658203
10.26,8.6114501953125,8.89621524658203
10.32,8.6114501953125,8.89621524658203
10.38,8.6114501953125,8.89621524658203
10.44,8.6114501953125,8.89621524658203
10.5,8.6114501953125,8.89621524658203
10.56,8.722412109375,8.98511044921874
10.62,8.722412109375,8.98511044921874
10.68,8.722412109375,8.98511044921874
10.74,8.722412109375,8.98511044921874
10.8,8.722412109375,8.98511044921874
10.86,8.722412109375,8.98511044921874
10.92,8.722412109375,8.98511044921874
10.98,8.722412109375,8.98511044921874
11.04,8.824951171875,9.06548571777343
11.1,8.824951171875,9.06548571777343
11.16,8.824951171875,9.06548571777343
11.22,8.824951171875,9.06548571777343
11.28,8.824951171875,9.06548571777343
11.34,8.824951171875,9.06548571777343
11.4,8.824951171875,9.06548571777343
11.46,8.824951171875,9.06548571777343
11.52,8.918701171875,9.14119252929687
11.58,8.918701171875,9.14119252929687
11.64,8.918701171875,9.14119252929687
11.7,8.918701171875,9.14119252929687
11.76,8.918701171875,9.14119252929687
11.82,8.918701171875,9.14119252929687
11.88,8.918701171875,9.14119252929687
11.94,8.918701171875,9.14119252929687
12,8.918701171875,9.14119252929687
12.06,9.0054931640625,9.20919638671874
12.12,9.0054931640625,9.20919638671874
12.18,9.0054931640625,9.20919638671874
12.24,9.0054931640625,9.20919638671874
12.3,9.0054931640625,9.20919638671874
12.36,9.0054931640625,9.20919638671874
12.42,9.0054931640625,9.20919638671874
12.48,9.0054931640625,9.20919638671874
12.54,9.0849609375,9.27288192138671
12.6,9.0849609375,9.27288192138671
12.66,9.0849609375,9.27288192138671
12.72,9.0849609375,9.27288192138671
12.78,9.0849609375,9.27288192138671
12.84,9.0849609375,9.27288192138671
12.9,9.0849609375,9.27288192138671
12.96,9.0849609375,9.27288192138671
13.02,9.158203125,9.33108201904296
13.08,9.158203125,9.33108201904296
13.14,9.158203125,9.33108201904296
13.2,9.158203125,9.33108201904296
13.26,9.158203125,9.33108201904296
13.32,9.158203125,9.33108201904296
13.38,9.158203125,9.33108201904296
13.44,9.158203125,9.33108201904296
13.5,9.158203125,9.33108201904296
13.56,9.2255859375,9.38461365966796
13.62,9.2255859375,9.38461365966796
13.68,9.2255859375,9.38461365966796
13.74,9.2255859375,9.38461365966796
13.8,9.2255859375,9.38461365966796
13.86,9.2255859375,9.38461365966796
13.92,9.2255859375,9.38461365966796
13.98,9.2255859375,9.38461365966796
14.04,9.287841796875,9.43300999755859
14.1,9.287841796875,9.43300999755859
14.16,9.287841796875,9.43300999755859
14.22,9.287841796875,9.43300999755859
14.28,9.287841796875,9.43300999755859
14.34,9.287841796875,9.43300999755859
14.4,9.287841796875,9.43300999755859
14.46,9.287841796875,9.43300999755859
14.52,9.34423828125,9.4802392211914
14.58,9.34423828125,9.4802392211914
14.64,9.34423828125,9.4802392211914
14.7,9.34423828125,9.4802392211914
14.76,9.34423828125,9.4802392211914
14.82,9.34423828125,9.4802392211914
14.88,9.34423828125,9.4802392211914
14.94,9.34423828125,9.4802392211914
15,9.34423828125,9.4802392211914
15.06,9.3973388671875,9.51999891357421
15.12,9.3973388671875,9.51999891357421
15.18,9.3973388671875,9.51999891357421
15.24,9.3973388671875,9.51999891357421
15.3,9.3973388671875,9.51999891357421
15.36,9.3973388671875,9.51999891357421
15.42,9.3973388671875,9.51999891357421
15.48,9.3973388671875,9.51999891357421
15.54,9.4453125,9.55917504882812
15.6,9.4453125,9.55917504882812
15.66,9.4453125,9.55917504882812
15.72,9.4453125,9.55917504882812
15.78,9.4453125,9.55917504882812
15.84,9.4453125,9.55917504882812
15.9,9.4453125,9.55917504882812
15.96,9.4453125,9.55917504882812
16.02,9.4896240234375,9.59473312988281
16.08,9.4896240234375,9.59473312988281
16.14,9.4896240234375,9.59473312988281
16.2,9.4896240234375,9.59473312988281
16.26,9.4896240234375,9.59473312988281
16.32,9.4896240234375,9.59473312988281
16.38,9.4896240234375,9.59473312988281
16.44,9.4896240234375,9.59473312988281
16.5,9.4896240234375,9.59473312988281
16.56,9.5306396484375,9.62667315673828
16.62,9.5306396484375,9.62667315673828
16.68,9.5306396484375,9.62667315673828
16.74,9.5306396484375,9.62667315673828
16.8,9.5306396484375,9.62667315673828
16.86,9.5306396484375,9.62667315673828
16.92,9.5306396484375,9.62667315673828
16.98,9.5306396484375,9.62667315673828
17.04,9.5679931640625,9.65721264648437
17.1,9.5679931640625,9.65721264648437
17.16,9.5679931640625,9.65721264648437
17.22,9.5679931640625,9.65721264648437
17.28,9.5679931640625,9.65721264648437
17.34,9.5679931640625,9.65721264648437
17.4,9.5679931640625,9.65721264648437
17.46,9.5679931640625,9.65721264648437
17.52,9.6024169921875,9.68518448486328
17.58,9.6024169921875,9.68518448486328
17.64,9.6024169921875,9.68518448486328
17.7,9.6024169921875,9.68518448486328
17.76,9.6024169921875,9.68518448486328
17.82,9.6024169921875,9.68518448486328
17.88,9.6024169921875,9.68518448486328
17.94,9.6024169921875,9.68518448486328
18,9.6024169921875,9.68518448486328
18.06,9.6346435546875,9.70918813476562
18.12,9.6346435546875,9.70918813476562
18.18,9.6346435546875,9.70918813476562
18.24,9.6346435546875,9.70918813476562
18.3,9.6346435546875,9.70918813476562
18.36,9.6346435546875,9.70918813476562
18.42,9.6346435546875,9.70918813476562
18.48,9.6346435546875,9.70918813476562
18.54,9.66357421875,9.73342520751953
18.6,9.66357421875,9.73342520751953
18.66,9.66357421875,9.73342520751953
18.72,9.66357421875,9.73342520751953
18.78,9.66357421875,9.73342520751953
18.84,9.66357421875,9.73342520751953
18.9,9.66357421875,9.73342520751953
18.96,9.66357421875,9.73342520751953
19.02,9.690673828125,9.75427764892578
19.08,9.690673828125,9.75427764892578
19.14,9.690673828125,9.75427764892578
19.2,9.690673828125,9.75427764892578
19.26,9.690673828125,9.75427764892578
19.32,9.690673828125,9.75427764892578
19.38,9.690673828125,9.75427764892578
19.44,9.690673828125,9.75427764892578
19.5,9.690673828125,9.75427764892578
19.56,9.715576171875,9.77349613037109
19.62,9.715576171875,9.77349613037109
19.68,9.715576171875,9.77349613037109
19.74,9.715576171875,9.77349613037109
19.8,9.715576171875,9.77349613037109
19.86,9.715576171875,9.77349613037109
19.92,9.715576171875,9.77349613037109
19.98,9.715576171875,9.77349613037109
20.04,9.7379150390625,9.79294803466796
20.1,9.7379150390625,9.79294803466796
20.16,9.7379150390625,9.79294803466796
20.22,9.7379150390625,9.79294803466796
20.28,9.7379150390625,9.79294803466796
20.34,9.7379150390625,9.79294803466796
20.4,9.7379150390625,9.79294803466796
20.46,9.7379150390625,9.79294803466796
20.52,9.7591552734375,9.80878188476562
20.58,9.7591552734375,9.80878188476562
20.64,9.7591552734375,9.80878188476562
20.7,9.7591552734375,9.80878188476562
20.76,9.7591552734375,9.80878188476562
20.82,9.7591552734375,9.80878188476562
20.88,9.7591552734375,9.80878188476562
20.94,9.7591552734375,9.80878188476562
21,9.7591552734375,9.80878188476562
21.06,9.778564453125,9.82368204345703
21.12,9.778564453125,9.82368204345703
21.18,9.778564453125,9.82368204345703
21.24,9.778564453125,9.82368204345703
21.3,9.778564453125,9.82368204345703
21.36,9.778564453125,9.82368204345703
21.42,9.778564453125,9.82368204345703
21.48,9.778564453125,9.82368204345703
21.54,9.796142578125,9.83823206787109
21.6,9.796142578125,9.83823206787109
21.66,9.796142578125,9.83823206787109
21.72,9.796142578125,9.83823206787109
21.78,9.796142578125,9.83823206787109
21.84,9.796142578125,9.83823206787109
21.9,9.796142578125,9.83823206787109
21.96,9.796142578125,9.83823206787109
22.02,9.812255859375,9.8518484008789
22.08,9.812255859375,9.8518484008789
22.14,9.812255859375,9.8518484008789
22.2,9.812255859375,9.8518484008789
22.26,9.812255859375,9.8518484008789
22.32,9.812255859375,9.8518484008789
22.38,9.812255859375,9.8518484008789
22.44,9.812255859375,9.8518484008789
22.5,9.812255859375,9.8518484008789
22.56,9.82763671875,9.86266365966796
22.62,9.82763671875,9.86266365966796
22.68,9.82763671875,9.86266365966796
22.74,9.82763671875,9.86266365966796
22.8,9.82763671875,9.86266365966796
22.86,9.82763671875,9.86266365966796
22.92,9.82763671875,9.86266365966796
22.98,9.82763671875,9.86266365966796
23.04,9.8411865234375,9.87441260986327
23.1,9.8411865234375,9.87441260986327
23.16,9.8411865234375,9.87441260986327
23.22,9.8411865234375,9.87441260986327
23.28,9.8411865234375,9.87441260986327
23.34,9.8411865234375,9.87441260986327
23.4,9.8411865234375,9.87441260986327
23.46,9.8411865234375,9.87441260986327
23.52,9.85400390625,9.88417746582031
23.58,9.85400390625,9.88417746582031
23.64,9.85400390625,9.88417746582031
23.7,9.85400390625,9.88417746582031
23.76,9.85400390625,9.88417746582031
23.82,9.85400390625,9.88417746582031
23.88,9.85400390625,9.88417746582031
23.94,9.85400390625,9.88417746582031
24,9.85400390625,9.88417746582031
24.06,9.86572265625,9.89335876464843
24.12,9.86572265625,9.89335876464843
24.18,9.86572265625,9.89335876464843
24.24,9.86572265625,9.89335876464843
24.3,9.86572265625,9.89335876464843
24.36,9.86572265625,9.89335876464843
24.42,9.86572265625,9.89335876464843
24.48,9.86572265625,9.89335876464843
24.54,9.8763427734375,9.90230664062499
24.6,9.8763427734375,9.90230664062499
24.66,9.8763427734375,9.90230664062499
24.72,9.8763427734375,9.90230664062499
24.78,9.8763427734375,9.90230664062499
24.84,9.8763427734375,9.90230664062499
24.9,9.8763427734375,9.90230664062499
24.96,9.8763427734375,9.90230664062499
25.02,9.8865966796875,9.90903699951171
25.08,9.8865966796875,9.90903699951171
25.14,9.8865966796875,9.90903699951171
25.2,9.8865966796875,9.90903699951171
25.26,9.8865966796875,9.90903699951171
25.32,9.8865966796875,9.90903699951171
25.38,9.8865966796875,9.90903699951171
25.44,9.8865966796875,9.90903699951171
25.5,9.8865966796875,9.90903699951171
25.56,9.89501953125,9.91833500976562
25.62,9.89501953125,9.91833500976562
25.68,9.89501953125,9.91833500976562
25.74,9.89501953125,9.91833500976562
25.8,9.89501953125,9.91833500976562
25.86,9.89501953125,9.91833500976562
25.92,9.89501953125,9.91833500976562
25.98,9.89501953125,9.91833500976562
26.04,9.9041748046875,9.92261442871093
26.1,9.9041748046875,9.92261442871093
26.16,9.9041748046875,9.92261442871093
26.22,9.9041748046875,9.92261442871093
26.28,9.9041748046875,9.92261442871093
26.34,9.9041748046875,9.92261442871093
26.4,9.9041748046875,9.92261442871093
26.46,9.9041748046875,9.92261442871093
26.52,9.9111328125,9.93097874755859
26.58,9.9111328125,9.93097874755859
26.64,9.9111328125,9.93097874755859
26.7,9.9111328125,9.93097874755859
26.76,9.9111328125,9.93097874755859
26.82,9.9111328125,9.93097874755859
26.88,9.9111328125,9.93097874755859
26.94,9.9111328125,9.93097874755859
27,9.9111328125,9.93097874755859
27.06,9.9188232421875,9.93479132080077
27.12,9.9188232421875,9.93479132080077
27.18,9.9188232421875,9.93479132080077
27.24,9.9188232421875,9.93479132080077
27.3,9.9188232421875,9.93479132080077
27.36,9.9188232421875,9.93479132080077
27.42,9.9188232421875,9.93479132080077
27.48,9.9188232421875,9.93479132080077
27.54,9.925048828125,9.94082141113281
27.6,9.925048828125,9.94082141113281
27.66,9.925048828125,9.94082141113281
27.72,9.925048828125,9.94082141113281
27.78,9.925048828125,9.94082141113281
27.84,9.925048828125,9.94082141113281
27.9,9.925048828125,9.94082141113281
27.96,9.925048828125,9.94082141113281
28.02,9.930908203125,9.94603452148437
28.08,9.930908203125,9.94603452148437
28.14,9.930908203125,9.94603452148437
28.2,9.930908203125,9.94603452148437
28.26,9.930908203125,9.94603452148437
28.32,9.930908203125,9.94603452148437
28.38,9.930908203125,9.94603452148437
28.44,9.930908203125,9.94603452148437
28.5,9.930908203125,9.94603452148437
28.56,9.936767578125,9.94938024902343
28.62,9.936767578125,9.94938024902343
28.68,9.936767578125,9.94938024902343
28.74,9.936767578125,9.94938024902343
28.8,9.936767578125,9.94938024902343
28.86,9.936767578125,9.94938024902343
28.92,9.936767578125,9.94938024902343
28.98,9.936767578125,9.94938024902343
29.04,9.9415283203125,9.95435993652343
29.1,9.9415283203125,9.95435993652343
29.16,9.9415283203125,9.95435993652343
29.22,9.9415283203125,9.95435993652343
29.28,9.9415283203125,9.95435993652343
29.34,9.9415283203125,9.95435993652343
29.4,9.9415283203125,9.95435993652343
29.46,9.9415283203125,9.95435993652343
29.52,9.9466552734375,9.95665526123046
29.58,9.9466552734375,9.95665526123046
29.64,9.9466552734375,9.95665526123046
29.7,9.9466552734375,9.95665526123046
29.76,9.9466552734375,9.95665526123046
29.82,9.9466552734375,9.95665526123046
29.88,9.9466552734375,9.95665526123046
29.94,9.9466552734375,9.95665526123046
30,9.9466552734375,9.95665526123046
30.06,9.9503173828125,-12
30.12,9.9503173828125,-12
30.18,9.9503173828125,-12
30.24,9.9503173828125,-12
30.3,9.9503173828125,-12
30.36,9.9503173828125,-12
30.42,9.9503173828125,-12
30.48,9.9503173828125,-12
30.54,1.33447265625,12
30.6,1.33447265625,12
30.66,1.33447265625,12
30.72,1.33447265625,12
30.78,1.33447265625,12
30.84,1.33447265625,12
30.9,1.33447265625,12
30.96,1.33447265625,12
31.02,5.50341796875,-1.71172514648437
31.08,5.50341796875,-1.71172514648437
31.14,5.50341796875,-1.71172514648437
31.2,5.50341796875,-1.71172514648437
31.26,5.50341796875,-1.71172514648437
31.32,5.50341796875,-1.71172514648437
31.38,5.50341796875,-1.71172514648437
31.44,5.50341796875,-1.71172514648437
31.5,5.50341796875,-1.71172514648437
31.56,2.688720703125,5.50477573242188
31.62,2.688720703125,5.50477573242188
31.68,2.688720703125,5.50477573242188
31.74,2.688720703125,5.50477573242188
31.8,2.688720703125,5.50477573242188
31.86,2.688720703125,5.50477573242188
31.92,2.688720703125,5.50477573242188
31.98,2.688720703125,5.50477573242188
32.04,3.7869873046875,1.14770478515625
32.1,3.7869873046875,1.14770478515625
32.16,3.7869873046875,1.14770478515625
32.22,3.7869873046875,1.14770478515625
32.28,3.7869873046875,1.14770478515625
32.34,3.7869873046875,1.14770478515625
32.4,3.7869873046875,1.14770478515625
32.46,3.7869873046875,1.14770478515625
32.52,2.756103515625,3.22621856689453
32.58,2.756103515625,3.22621856689453
32.64,2.756103515625,3.22621856689453
